!
! -----------------------------------------------------------------------------
! By using this Touchstone file you agree to the following terms and conditions.
!
! Copyright
!
!	Copyright 2018 FCI
!
! This Touchstone file has been created for our customers and associates.
! FCI retains copyright in the entire text and graphic content of 
! this file.  You may view, copy and distribute this file freely.
! You are not authorized to modify this file in any manner without
! the written permission of FCI.  All other rights are reserved by FCI.
!
!
! Information
!
! FCI endeavors to use its reasonable efforts to place accurate and
! up-to-date information in this Touchstone file.  However, this file is
! provided on an as is basis.  FCI GIVES NO WARRANTY, EXPRESS OR 
! IMPLIED, WITH RESPECT TO ANY INFORMATION PROVIDED IN THIS FILE,
! INCLUDING BUT NOT LIMITED TO THE IMPLIED WARRANTIES OF 
! MERCHANTABILITY, FITNESS FOR A PARTICULAR PURPOSE OR NON-INFRINGEMENT.
! FCI SHALL NOT BE LIABLE FOR ANY DIRECT, SPECIAL, INDIRECT, 
! CONSEQUENTIAL, PUNITIVE OR OTHER DAMAGES BASED ON USE OF THIS FILE.
!
! Trademarks
!
! This file may include names for products that are trademarks 
! used by FCI and FCI Group companies.  
! Unauthorized use or misuse of such trademarks is prohibited.
! -----------------------------------------------------------------------------
!
#	Hz	S	RI	R	50
1e+07	0.006182044	0.0159336	0.9909399	-0.0840356	0.001769026	0.01374625	-0.0008154994	-0.002291119	
0.9915247	-0.08347854	0.006745327	0.0187097	-0.0005771355	-0.002344167	0.001917857	0.01336353	
0.001386607	0.01335038	-0.0009123128	-0.002562986	0.005483727	0.01160555	0.9922413	-0.08299663	
-0.0009562017	-0.002286337	0.001358449	0.01417925	0.9924002	-0.08254572	0.006902799	0.01278927	

2e+07	0.01205546	0.02982617	0.978738	-0.1638957	0.005281069	0.02650586	-0.002199632	-0.004078087	
0.9788024	-0.164128	0.01277041	0.02992455	-0.002211184	-0.004074368	0.005411719	0.02633799	
0.005252419	0.02649739	-0.002163272	-0.004164068	0.01013447	0.02178533	0.9798723	-0.1627201	
-0.002237348	-0.004041111	0.005387617	0.02637745	0.9789587	-0.1629222	0.01130977	0.02201554	

3e+07	0.01907361	0.04188124	0.960258	-0.2421055	0.01083346	0.03847603	-0.0038905	-0.005378043	
0.960559	-0.2420568	0.01968223	0.04234752	-0.004005748	-0.005379862	0.01097719	0.03835803	
0.01076195	0.03838333	-0.003903952	-0.00534356	0.01593604	0.03071089	0.9614155	-0.2406313	
-0.003868168	-0.00535298	0.01092491	0.03839911	0.9610781	-0.2406491	0.01662267	0.03015182	

4e+07	0.02773362	0.05238633	0.9355227	-0.3178784	0.01800548	0.04928783	-0.006002506	-0.006156285	
0.9355458	-0.3179528	0.02880563	0.05315682	-0.006029926	-0.006120423	0.0183001	0.04919664	
0.01803706	0.04925423	-0.00590136	-0.006098735	0.02301423	0.03766499	0.9371809	-0.3163803	
-0.005987747	-0.006086019	0.01839052	0.04916017	0.9366117	-0.3163181	0.02349133	0.03722461	

5e+07	0.03817279	0.06133914	0.9044153	-0.3910213	0.02694256	0.05888313	-0.008113314	-0.006380959	
0.9048441	-0.3910218	0.03952026	0.06206326	-0.008140237	-0.006268721	0.02741567	0.05855416	
0.02675782	0.05871977	-0.008219623	-0.006288406	0.03024435	0.04292582	0.9070293	-0.3893221	
-0.008134027	-0.006298002	0.02735572	0.05848829	0.9067215	-0.3891317	0.03117353	0.0430485	

6e+07	0.04914072	0.06882593	0.8681303	-0.4610806	0.03697539	0.06670894	-0.01048668	-0.00590128	
0.8685791	-0.4610738	0.0511025	0.06861024	-0.01047648	-0.005890951	0.03765453	0.06635951	
0.03687211	0.06659709	-0.01051661	-0.005842685	0.03803138	0.04719923	0.8708562	-0.4596129	
-0.01051014	-0.005871177	0.03758349	0.06628531	0.870783	-0.4594554	0.03937271	0.0473353	

7e+07	0.06112584	0.07424106	0.8266122	-0.5271565	0.04824275	0.07294854	-0.01275142	-0.004879834	
0.8269816	-0.527228	0.06338521	0.07329305	-0.01277255	-0.004937418	0.04906237	0.07239075	
0.0480603	0.07284967	-0.0127475	-0.004909978	0.0460475	0.05050559	0.8302274	-0.5263923	
-0.01265418	-0.004795495	0.04906303	0.07224567	0.8297589	-0.5260598	0.04817128	0.05014938	

8e+07	0.07333947	0.07762972	0.7800617	-0.5894628	0.06012919	0.07726141	-0.01477928	-0.003254816	
0.7806171	-0.5894608	0.07593714	0.07596905	-0.01484111	-0.003267921	0.06114706	0.07638842	
0.0598674	0.07718414	-0.01474868	-0.003254891	0.05471229	0.052618	0.7842783	-0.5888887	
-0.01469407	-0.003239463	0.06110202	0.07628643	0.7838559	-0.5886496	0.05702668	0.05150271	

9e+07	0.08552132	0.07896426	0.72906	-0.6474393	0.07248763	0.07960352	-0.01646023	-0.001171095	
0.729733	-0.647484	0.08867678	0.07668271	-0.01649821	-0.001153742	0.07369037	0.0785459	
0.07221845	0.0796356	-0.01650454	-0.001168795	0.06369963	0.05300022	0.7338963	-0.6473977	
-0.01634535	-0.001135639	0.07356518	0.07838162	0.7334281	-0.6470284	0.06591074	0.05150014	

1e+08	0.09752026	0.07857087	0.6742187	-0.7007469	0.08498101	0.08012529	-0.01768201	0.001333783	
0.6747631	-0.7009569	0.1012691	0.07531292	-0.01766396	0.001388788	0.08627272	0.07864681	
0.08466751	0.08012468	-0.01766627	0.001376534	0.07215939	0.05174361	0.6792976	-0.7014945	
-0.0175624	0.001343736	0.08615565	0.07858573	0.6790317	-0.7011359	0.07462585	0.05000883	

1.1e+08	0.1092966	0.07647162	0.6157525	-0.7491744	0.09727884	0.07866427	-0.01840304	0.00415528	
0.6162409	-0.7494598	0.1132834	0.07222134	-0.01835918	0.004106131	0.09866566	0.07682883	
0.09695382	0.07874103	-0.01835736	0.00414913	0.0798972	0.04933854	0.6209971	-0.7508071	
-0.01824918	0.004128345	0.09856576	0.07672108	0.6206666	-0.7504142	0.08293764	0.04724688	

1.2e+08	0.1207145	0.07241187	0.5542786	-0.7927276	0.109142	0.07541598	-0.01853919	0.007150525	
0.5547174	-0.7929735	0.1249395	0.06722233	-0.01849095	0.007099306	0.1105937	0.07318639	
0.1087661	0.07555865	-0.01847052	0.007095803	0.08721607	0.04617386	0.5595409	-0.7952746	
-0.01837824	0.007094668	0.110444	0.07304622	0.5592806	-0.7949715	0.0906004	0.04329839	

1.3e+08	0.1313502	0.0665281	0.4900433	-0.8312367	0.1203099	0.07044166	-0.01801051	0.010229	
0.4905501	-0.8315934	0.1357986	0.06061037	-0.01804802	0.0101298	0.1217323	0.06775225	
0.1199094	0.07063075	-0.01803942	0.01011845	0.09414085	0.04204542	0.4951423	-0.834743	
-0.01783932	0.01014819	0.1216044	0.0676211	0.4948885	-0.8344629	0.09772491	0.03822512	

1.4e+08	0.1409049	0.059314	0.4234152	-0.8647859	0.1305338	0.0638677	-0.01689864	0.01317707	
0.423988	-0.865147	0.1456465	0.05238176	-0.01692903	0.01311734	0.1319277	0.06071714	
0.1301249	0.06411868	-0.01692409	0.01310501	0.1004217	0.03680369	0.4282166	-0.8691567	
-0.01675877	0.01307453	0.1317521	0.06058586	0.4279046	-0.86865	0.1038853	0.03208791	

1.5e+08	0.1493158	0.05092835	0.3550537	-0.8929421	0.139603	0.0559406	-0.01522018	0.01587588	
0.3555313	-0.8934429	0.1541936	0.04284419	-0.01524172	0.01589798	0.1409055	0.05230566	
0.1392087	0.05621134	-0.01522207	0.01588573	0.1057425	0.03077741	0.3592601	-0.8982983	
-0.01506404	0.01573909	0.1407138	0.05218484	0.3589876	-0.8977573	0.1090357	0.02529493	

1.6e+08	0.1567037	0.04163324	0.2849945	-0.9159305	0.1473541	0.04677104	-0.01307129	0.01828396	
0.2853359	-0.9164804	0.1613011	0.03227077	-0.01300995	0.01827568	0.1485226	0.04263263	
0.1469626	0.04710671	-0.01299102	0.01825672	0.109947	0.02401737	0.2884362	-0.9219977	
-0.01295226	0.01811143	0.148291	0.04256944	0.2882821	-0.9215638	0.1132316	0.01787406	

1.7e+08	0.1627954	0.03145559	0.2137091	-0.9336383	0.1536539	0.03658206	-0.01040798	0.02028078	
0.2140043	-0.9342161	0.1669251	0.02079713	-0.01038292	0.0202677	0.1545701	0.03199058	
0.1532495	0.0370247	-0.01037544	0.02022523	0.1130389	0.01709331	0.2163214	-0.9403853	
-0.01039533	0.02011739	0.1543284	0.03190345	0.216121	-0.9399194	0.1162771	0.009960039	

1.8e+08	0.1672793	0.02056007	0.1416169	-0.9461083	0.1583366	0.02562601	-0.007441578	0.02178631	
0.1418145	-0.9466231	0.1707164	0.008752831	-0.007403606	0.02174532	0.1589194	0.02059823	
0.1579566	0.02618356	-0.007457803	0.02172304	0.1154078	0.01005879	0.1432241	-0.9531919	
-0.007383728	0.0216716	0.1587123	0.02051231	0.1430854	-0.9528173	0.1183503	0.001702534	

1.9e+08	0.1699102	0.009643536	0.06912521	-0.9532121	0.1613429	0.01412568	-0.004209168	0.02262499	
0.06934277	-0.9538478	0.1726542	-0.003798736	-0.004295134	0.02264822	0.1616366	0.008661814	
0.1610546	0.014714	-0.004260531	0.02261877	0.1166354	0.002916532	0.06940918	-0.9607565	
-0.004136319	0.02244631	0.1614453	0.00863826	0.06925628	-0.9603488	0.1190474	-0.006909296	

2e+08	0.1710106	-0.001361031	-0.003915952	-0.9552595	0.1626818	0.002353504	-0.0008969067	0.02287931	
-0.003844844	-0.955941	0.1725124	-0.01623997	-0.0009451938	0.02290793	0.1625829	-0.00353935	
0.1623914	0.002924768	-0.000968288	0.02286961	0.1171245	-0.004509355	-0.004694579	-0.9626929	
-0.0009035281	0.02273022	0.1623368	-0.003588122	-0.004614122	-0.9621641	0.1185981	-0.0154321	

2.1e+08	0.1705549	-0.01215377	-0.07674776	-0.951924	0.1622351	-0.009517412	0.0023253	0.02256866	
-0.07669377	-0.9524394	0.1707713	-0.02830693	0.002350085	0.02260498	0.1616527	-0.01568529	
0.1619393	-0.008800709	0.002304881	0.02255857	0.1163209	-0.01210156	-0.0785557	-0.959265	
0.002313348	0.02241781	0.1613154	-0.01567738	-0.07850607	-0.9586649	0.1167605	-0.02372514	

2.2e+08	0.1687483	-0.02298037	-0.1492692	-0.9434876	0.1600769	-0.02116499	0.00547975	0.02171745	
-0.14918	-0.9438987	0.1674239	-0.04006742	0.005424612	0.02168058	0.1589495	-0.02760806	
0.1598411	-0.02036829	0.005411587	0.02167904	0.1142868	-0.01937007	-0.1520969	-0.950136	
0.005329431	0.02155061	0.1587027	-0.02759489	-0.1519711	-0.9497142	0.1139955	-0.03173045	

2.3e+08	0.1650444	-0.03342822	-0.2209691	-0.9294928	0.1561757	-0.03235972	0.008347651	0.02026359	
-0.2208137	-0.9298962	0.162535	-0.05129892	0.008273062	0.02028726	0.1545603	-0.03904175	
0.1560171	-0.03149442	0.008245611	0.02027967	0.1114562	-0.02619499	-0.2246781	-0.9358074	
0.008221913	0.02014809	0.1542859	-0.03897092	-0.2245103	-0.9354009	0.1100149	-0.03932424	

2.4e+08	0.1602722	-0.04328902	-0.2916464	-0.9103447	0.1506674	-0.04284512	0.01085048	0.0184288	
-0.2915586	-0.9107486	0.1560827	-0.06175702	0.01079629	0.01832876	0.1484278	-0.04970585	
0.150597	-0.04196991	0.0107692	0.01834718	0.1073899	-0.03273069	-0.2962283	-0.9160553	
0.01076252	0.01831982	0.1481865	-0.04964881	-0.2958952	-0.9156694	0.1051621	-0.04619838	

2.5e+08	0.1539041	-0.05283258	-0.3607601	-0.8860394	0.1436461	-0.05243067	0.01301915	0.0160853	
-0.3607621	-0.8865311	0.1481725	-0.07166728	0.01272283	0.01626525	0.1408631	-0.05936856	
0.1436684	-0.05153582	0.01270525	0.01624733	0.1039131	-0.03747055	-0.3660557	-0.8908711	
0.01289192	0.01598053	0.1405817	-0.05926156	-0.3659463	-0.8904208	0.09921997	-0.0525553	

2.6e+08	0.146362	-0.06110604	-0.4282159	-0.8564878	0.1353342	-0.06090445	0.01457456	0.01348557	
-0.4283697	-0.8569062	0.1390602	-0.08004241	0.01445936	0.01364098	0.1318528	-0.06784861	
0.1354343	-0.06000173	0.01444755	0.01366585	0.09856464	-0.04403056	-0.4340512	-0.8608265	
0.01444468	0.01345615	0.1316485	-0.06772091	-0.4337348	-0.8601269	0.0925837	-0.05778494	

2.7e+08	0.1378123	-0.06861101	-0.4937342	-0.8220723	0.1257109	-0.06802668	0.0155556	0.01077316	
-0.4936145	-0.8223367	0.1291657	-0.08726628	0.01548692	0.01090103	0.1216339	-0.07480927	
0.1259551	-0.06699986	0.01550648	0.01086971	0.09210035	-0.04827026	-0.4998456	-0.8249668	
0.01543429	0.01074608	0.1214151	-0.0747382	-0.4995315	-0.8245984	0.08558153	-0.0618471	

2.8e+08	0.1284695	-0.07500126	-0.5562057	-0.7825331	0.115139	-0.07362844	0.0160858	0.007957113	
-0.5561859	-0.7828107	0.118103	-0.09308943	0.01596867	0.008063927	0.1104545	-0.08019145	
0.1155386	-0.07266147	0.01590517	0.008086505	0.08558715	-0.05156724	-0.5629826	-0.7844126	
0.01597601	0.007956363	0.1103011	-0.08011208	-0.5626811	-0.7839409	0.07790116	-0.0650003	

2.9e+08	0.1182568	-0.07978708	-0.6162492	-0.7381736	0.1038723	-0.07750384	0.01597772	0.005188437	
-0.6162799	-0.7386521	0.1061763	-0.09725162	0.01590952	0.005300916	0.09868658	-0.08386775	
0.1042948	-0.07660477	0.01589518	0.005357815	0.07881404	-0.05400467	-0.6228348	-0.739141	
0.01583774	0.005162097	0.09845029	-0.08382011	-0.6224779	-0.738804	0.06990131	-0.06722672	

3e+08	0.1077075	-0.08282823	-0.672741	-0.6891421	0.09201936	-0.07969322	0.0152853	0.002641491	
-0.6729025	-0.6893874	0.09378679	-0.09968922	0.01527571	0.002779388	0.0862671	-0.08572228	
0.09254826	-0.07881311	0.01529168	0.002836428	0.07191439	-0.05574341	-0.6791617	-0.6888247	
0.01515476	0.002655937	0.08606625	-0.08552753	-0.6789502	-0.6884039	0.06156457	-0.06795423	

3.1e+08	0.09675102	-0.08431276	-0.7255981	-0.6355377	0.08003816	-0.08002926	0.01422935	0.0003730796	
-0.7257374	-0.6358371	0.08140588	-0.0999909	0.01425869	0.0005255547	0.07376793	-0.08562069	
0.08059131	-0.07920539	0.01426549	0.0005569456	0.06461867	-0.05670943	-0.731794	-0.6342627	
0.01411905	0.0003491464	0.07355554	-0.08548376	-0.7313631	-0.634105	0.05330862	-0.06749684	

3.2e+08	0.08597919	-0.0839797	-0.7746145	-0.5776928	0.06797598	-0.07852535	0.0126784	-0.00151232	
-0.7744845	-0.5781187	0.06888395	-0.09849455	0.01273903	-0.001479535	0.06134889	-0.08358113	
0.06873682	-0.0776723	0.01274965	-0.001440051	0.05701127	-0.05593201	-0.7800354	-0.5756445	
0.0126817	-0.001475193	0.06125742	-0.08349789	-0.7796883	-0.5753856	0.04525024	-0.06574618	

3.3e+08	0.07508521	-0.08181896	-0.8188878	-0.5158882	0.05631383	-0.07516224	0.0109002	-0.002927519	
-0.8189438	-0.5163075	0.05683276	-0.09501774	0.01092827	-0.002864429	0.0494333	-0.07958165	
0.05712651	-0.07436619	0.01091683	-0.002854116	0.0498194	-0.05400426	-0.8235365	-0.5132238	
0.0108755	-0.002923307	0.04929124	-0.07950688	-0.8233785	-0.5128091	0.03739177	-0.063124	

3.4e+08	0.06500346	-0.07810031	-0.8581858	-0.4503536	0.04525485	-0.06996257	0.008889078	-0.003799205	
-0.8583762	-0.4507815	0.04521591	-0.08942239	0.008949414	-0.003790676	0.03819078	-0.07373374	
0.04613205	-0.0692603	0.008965075	-0.003753457	0.04320156	-0.05136558	-0.8624879	-0.4470512	
0.008822564	-0.003775617	0.03804866	-0.07369805	-0.862137	-0.4467656	0.03004867	-0.05897508	

3.5e+08	0.05516355	-0.0731777	-0.8925618	-0.3815074	0.03513139	-0.06312414	0.006926889	-0.004102869	
-0.8926515	-0.3818443	0.03501647	-0.08253532	0.006998983	-0.004132916	0.02804007	-0.06621318	
0.03613602	-0.06246946	0.006985081	-0.004123684	0.03684266	-0.0478168	-0.8956473	-0.3779016	
0.006859584	-0.004106994	0.02793058	-0.06608385	-0.8954796	-0.3777462	0.02341141	-0.05409885	

3.6e+08	0.04600939	-0.06630606	-0.9212789	-0.3096604	0.02619678	-0.05467721	0.004971356	-0.004004596	
-0.9210769	-0.3101192	0.02570179	-0.07406908	0.004993414	-0.003939799	0.01912797	-0.05714294	
0.02725323	-0.05419148	0.004986963	-0.003897666	0.03184493	-0.04294716	-0.9235645	-0.3060625	
0.004944717	-0.0039251	0.01904259	-0.05704949	-0.9231153	-0.3059287	0.01727763	-0.04812723	

3.7e+08	0.03833539	-0.05861519	-0.9437487	-0.2354232	0.01869082	-0.04490861	0.003249541	-0.003343589	
-0.9437999	-0.2360684	0.01813823	-0.06432785	0.003357382	-0.003282977	0.01179247	-0.04674199	
0.01981201	-0.0446267	0.003320679	-0.003221174	0.0266723	-0.03821023	-0.9454948	-0.2319952	
0.003254383	-0.003330105	0.01172919	-0.04662308	-0.9450855	-0.2318955	0.01258501	-0.04126338	

3.8e+08	0.03159385	-0.04998419	-0.9603134	-0.1596163	0.01290051	-0.03408864	0.001851068	-0.002272009	
-0.9605224	-0.1602753	0.01212953	-0.05403069	0.001924658	-0.00218578	0.006258432	-0.03524617	
0.0139424	-0.03391064	0.001907857	-0.002182909	0.02239766	-0.03181721	-0.9614266	-0.156259	
0.001811547	-0.002219365	0.00622462	-0.03515631	-0.9608837	-0.1561497	0.008941901	-0.03399949	

3.9e+08	0.02615858	-0.04074867	-0.9705465	-0.08243428	0.008822918	-0.02245669	0.0008291901	-0.0009039511	
-0.9707403	-0.08293474	0.00768403	-0.04270216	0.0009406684	-0.0008512464	0.002653363	-0.02302662	
0.009862257	-0.02239271	0.0009017175	-0.0008720026	0.01997885	-0.02516679	-0.9709327	-0.07933129	
0.0008476744	-0.0008193619	0.002602081	-0.02296101	-0.9704275	-0.07929749	0.006302519	-0.02637922	

4e+08	0.02244393	-0.03050571	-0.9742805	-0.004376031	0.006700187	-0.01028181	0.0003363361	0.0007186265	
-0.974432	-0.004890958	0.005160889	-0.03103429	0.0004072534	0.0007728885	0.001113373	-0.0103539	
0.007741019	-0.01037757	0.0004235362	0.0007492265	0.01853116	-0.01878326	-0.9738854	-0.001991096	
0.0003440625	0.0007408559	0.001045196	-0.01036585	-0.9735667	-0.001781006	0.005143552	-0.01845259	

4.1e+08	0.02047938	-0.02009797	-0.9712196	0.07371211	0.006523028	0.00203765	0.0002711103	0.002368908	
-0.9715678	0.07303506	0.004562603	-0.01897736	0.0003335349	0.002413833	0.001542188	0.002312064	
0.007532528	0.001823612	0.0003350214	0.002421108	0.01771486	-0.01221418	-0.9709112	0.07564727	
0.0003070855	0.00239075	0.001463901	0.002372166	-0.9704009	0.07561405	0.005094607	-0.01042777	

4.2e+08	0.02055565	-0.009383352	-0.9619473	0.1510525	0.008356114	0.01417107	0.0007367006	0.004053295	
-0.9623235	0.1504854	0.006205954	-0.00723787	0.0007589814	0.004071702	0.004106774	0.01478973	
0.009248648	0.01387478	0.0007954678	0.004060781	0.01798479	-0.005395158	-0.9613181	0.1527298	
0.0007448933	0.003991664	0.004097813	0.01483831	-0.9607923	0.1526347	0.00649323	-0.002768646	

4.3e+08	0.02241359	0.0007572622	-0.9460829	0.2275074	0.01211485	0.02590268	0.001702412	0.005534036	
-0.9467034	0.226802	0.00958831	0.004249488	0.001747169	0.005536642	0.008646747	0.02664737	
0.01293001	0.02548832	0.001748747	0.005496918	0.01950108	0.001257047	-0.9454363	0.2284982	
0.001655394	0.00550591	0.008626391	0.02666197	-0.9450475	0.2284367	0.009131717	0.004542376	

4.4e+08	0.02580821	0.01045699	-0.923958	0.3020969	0.0176816	0.03685366	0.003063896	0.006734827	
-0.9246338	0.30177	0.01495301	0.0150138	0.003125441	0.006695693	0.0150896	0.03755886	
0.01835151	0.03633977	0.003150227	0.006697165	0.02230074	0.00751982	-0.9235872	0.3027219	
0.003036617	0.00672289	0.01502115	0.03756712	-0.9230855	0.3025009	0.0126343	0.01139207	

4.5e+08	0.03070763	0.01966175	-0.8959722	0.3745802	0.02483359	0.04667895	0.004778394	0.007559444	
-0.8964558	0.3741138	0.02185505	0.02491722	0.004870647	0.007499309	0.0231673	0.04730544	
0.025435	0.04614545	0.004796979	0.007522309	0.02576005	0.01301858	-0.8956385	0.3746021	
0.004779535	0.007592159	0.02312452	0.04730206	-0.895139	0.3743976	0.01742584	0.01740912	

4.6e+08	0.03701743	0.02797388	-0.8618274	0.4440215	0.03349632	0.05527327	0.006752872	0.007945158	
-0.8624424	0.4436894	0.03041024	0.03349435	0.00684959	0.007894066	0.03269615	0.05557787	
0.03392309	0.05462347	0.006887523	0.007888993	0.02974025	0.01805794	-0.8621796	0.4437633	
0.006722792	0.007940917	0.03264885	0.05552545	-0.8615692	0.4435235	0.02308337	0.02282836	

4.7e+08	0.04465882	0.03519395	-0.8222481	0.5101469	0.04332474	0.06230815	0.008899035	0.007852326	
-0.8232009	0.5098066	0.03996316	0.04048214	0.00887761	0.007764475	0.04341768	0.06210684	
0.04368279	0.06170218	0.008919767	0.007785966	0.03469121	0.02248667	-0.8233303	0.5098213	
0.008872546	0.007774941	0.04331723	0.06209135	-0.8226829	0.5094573	0.02951681	0.02704157	

4.8e+08	0.05289564	0.04098436	-0.7780283	0.5726179	0.05412997	0.06770377	0.01098795	0.007186967	
-0.7788268	0.5723842	0.0503468	0.04568035	0.01100769	0.007111067	0.05498781	0.06690586	
0.05431589	0.06707188	0.01103106	0.007122556	0.04005748	0.0260402	-0.7792484	0.5724325	
0.01092776	0.007171888	0.05486545	0.06682805	-0.7788616	0.5719863	0.03651067	0.03028008	

4.9e+08	0.06157312	0.04549685	-0.7289582	0.6311145	0.06559932	0.07129955	0.01298803	0.006091437	
-0.7298772	0.6309072	0.06132431	0.04910925	0.01301097	0.006030934	0.06707322	0.06972297	
0.06560361	0.07070047	0.01300214	0.006019475	0.04566637	0.02846742	-0.7306182	0.63088	
0.01290757	0.006080512	0.06700219	0.06967762	-0.7302856	0.6304636	0.04381187	0.03218671	

5e+08	0.07060945	0.04879745	-0.6756141	0.6850781	0.0774149	0.07305847	0.01477067	0.004517617	
